Sample in Buffer,Sample in Window,TRIGGER,clk_IBUF_BUFG,valid_in,in_x_flat[1023:0],en,valid_out,prob_flat[1023:0]
Radix - UNSIGNED,UNSIGNED,UNSIGNED,HEX,HEX,HEX,HEX,HEX,HEX
0,0,0,0,0,061d061dfde20b13fbcf0b26042bf5be061d061dfde20b13fbcf0b26042bf5be061d061dfde20b13fbcf0b26042bf5be061d061dfde20b13fbcf0b26042bf5be061d061dfde20b13fbcf0b26042bf5be061d061dfde20b13fbcf0b26042bf5be061d061dfde20b13fbcf0b26042bf5be061d061dfde20b13fbcf0b26042bf5be,0,0,0000000000000000000000000000000000000000000000000000000000000000000000000000000000000000000000000000000000000000000000000000000000000000000000000000000000000000000000000000000000000000000000000000000000000000000000000000000000000000000000000000000000000000
1,1,0,0,0,061d061dfde20b13fbcf0b26042bf5be061d061dfde20b13fbcf0b26042bf5be061d061dfde20b13fbcf0b26042bf5be061d061dfde20b13fbcf0b26042bf5be061d061dfde20b13fbcf0b26042bf5be061d061dfde20b13fbcf0b26042bf5be061d061dfde20b13fbcf0b26042bf5be061d061dfde20b13fbcf0b26042bf5be,0,0,0000000000000000000000000000000000000000000000000000000000000000000000000000000000000000000000000000000000000000000000000000000000000000000000000000000000000000000000000000000000000000000000000000000000000000000000000000000000000000000000000000000000000000
2,2,0,0,0,061d061dfde20b13fbcf0b26042bf5be061d061dfde20b13fbcf0b26042bf5be061d061dfde20b13fbcf0b26042bf5be061d061dfde20b13fbcf0b26042bf5be061d061dfde20b13fbcf0b26042bf5be061d061dfde20b13fbcf0b26042bf5be061d061dfde20b13fbcf0b26042bf5be061d061dfde20b13fbcf0b26042bf5be,0,0,0000000000000000000000000000000000000000000000000000000000000000000000000000000000000000000000000000000000000000000000000000000000000000000000000000000000000000000000000000000000000000000000000000000000000000000000000000000000000000000000000000000000000000
3,3,0,0,0,061d061dfde20b13fbcf0b26042bf5be061d061dfde20b13fbcf0b26042bf5be061d061dfde20b13fbcf0b26042bf5be061d061dfde20b13fbcf0b26042bf5be061d061dfde20b13fbcf0b26042bf5be061d061dfde20b13fbcf0b26042bf5be061d061dfde20b13fbcf0b26042bf5be061d061dfde20b13fbcf0b26042bf5be,0,0,0000000000000000000000000000000000000000000000000000000000000000000000000000000000000000000000000000000000000000000000000000000000000000000000000000000000000000000000000000000000000000000000000000000000000000000000000000000000000000000000000000000000000000
4,4,0,0,0,061d061dfde20b13fbcf0b26042bf5be061d061dfde20b13fbcf0b26042bf5be061d061dfde20b13fbcf0b26042bf5be061d061dfde20b13fbcf0b26042bf5be061d061dfde20b13fbcf0b26042bf5be061d061dfde20b13fbcf0b26042bf5be061d061dfde20b13fbcf0b26042bf5be061d061dfde20b13fbcf0b26042bf5be,0,0,0000000000000000000000000000000000000000000000000000000000000000000000000000000000000000000000000000000000000000000000000000000000000000000000000000000000000000000000000000000000000000000000000000000000000000000000000000000000000000000000000000000000000000
5,5,0,0,0,061d061dfde20b13fbcf0b26042bf5be061d061dfde20b13fbcf0b26042bf5be061d061dfde20b13fbcf0b26042bf5be061d061dfde20b13fbcf0b26042bf5be061d061dfde20b13fbcf0b26042bf5be061d061dfde20b13fbcf0b26042bf5be061d061dfde20b13fbcf0b26042bf5be061d061dfde20b13fbcf0b26042bf5be,0,0,0000000000000000000000000000000000000000000000000000000000000000000000000000000000000000000000000000000000000000000000000000000000000000000000000000000000000000000000000000000000000000000000000000000000000000000000000000000000000000000000000000000000000000
6,6,0,0,0,061d061dfde20b13fbcf0b26042bf5be061d061dfde20b13fbcf0b26042bf5be061d061dfde20b13fbcf0b26042bf5be061d061dfde20b13fbcf0b26042bf5be061d061dfde20b13fbcf0b26042bf5be061d061dfde20b13fbcf0b26042bf5be061d061dfde20b13fbcf0b26042bf5be061d061dfde20b13fbcf0b26042bf5be,0,0,0000000000000000000000000000000000000000000000000000000000000000000000000000000000000000000000000000000000000000000000000000000000000000000000000000000000000000000000000000000000000000000000000000000000000000000000000000000000000000000000000000000000000000
7,7,0,0,0,061d061dfde20b13fbcf0b26042bf5be061d061dfde20b13fbcf0b26042bf5be061d061dfde20b13fbcf0b26042bf5be061d061dfde20b13fbcf0b26042bf5be061d061dfde20b13fbcf0b26042bf5be061d061dfde20b13fbcf0b26042bf5be061d061dfde20b13fbcf0b26042bf5be061d061dfde20b13fbcf0b26042bf5be,0,0,0000000000000000000000000000000000000000000000000000000000000000000000000000000000000000000000000000000000000000000000000000000000000000000000000000000000000000000000000000000000000000000000000000000000000000000000000000000000000000000000000000000000000000
8,8,0,0,0,061d061dfde20b13fbcf0b26042bf5be061d061dfde20b13fbcf0b26042bf5be061d061dfde20b13fbcf0b26042bf5be061d061dfde20b13fbcf0b26042bf5be061d061dfde20b13fbcf0b26042bf5be061d061dfde20b13fbcf0b26042bf5be061d061dfde20b13fbcf0b26042bf5be061d061dfde20b13fbcf0b26042bf5be,0,0,0000000000000000000000000000000000000000000000000000000000000000000000000000000000000000000000000000000000000000000000000000000000000000000000000000000000000000000000000000000000000000000000000000000000000000000000000000000000000000000000000000000000000000
9,9,0,0,0,061d061dfde20b13fbcf0b26042bf5be061d061dfde20b13fbcf0b26042bf5be061d061dfde20b13fbcf0b26042bf5be061d061dfde20b13fbcf0b26042bf5be061d061dfde20b13fbcf0b26042bf5be061d061dfde20b13fbcf0b26042bf5be061d061dfde20b13fbcf0b26042bf5be061d061dfde20b13fbcf0b26042bf5be,0,0,0000000000000000000000000000000000000000000000000000000000000000000000000000000000000000000000000000000000000000000000000000000000000000000000000000000000000000000000000000000000000000000000000000000000000000000000000000000000000000000000000000000000000000
10,10,0,0,0,061d061dfde20b13fbcf0b26042bf5be061d061dfde20b13fbcf0b26042bf5be061d061dfde20b13fbcf0b26042bf5be061d061dfde20b13fbcf0b26042bf5be061d061dfde20b13fbcf0b26042bf5be061d061dfde20b13fbcf0b26042bf5be061d061dfde20b13fbcf0b26042bf5be061d061dfde20b13fbcf0b26042bf5be,0,0,0000000000000000000000000000000000000000000000000000000000000000000000000000000000000000000000000000000000000000000000000000000000000000000000000000000000000000000000000000000000000000000000000000000000000000000000000000000000000000000000000000000000000000
11,11,0,0,0,061d061dfde20b13fbcf0b26042bf5be061d061dfde20b13fbcf0b26042bf5be061d061dfde20b13fbcf0b26042bf5be061d061dfde20b13fbcf0b26042bf5be061d061dfde20b13fbcf0b26042bf5be061d061dfde20b13fbcf0b26042bf5be061d061dfde20b13fbcf0b26042bf5be061d061dfde20b13fbcf0b26042bf5be,0,0,0000000000000000000000000000000000000000000000000000000000000000000000000000000000000000000000000000000000000000000000000000000000000000000000000000000000000000000000000000000000000000000000000000000000000000000000000000000000000000000000000000000000000000
12,12,0,0,0,061d061dfde20b13fbcf0b26042bf5be061d061dfde20b13fbcf0b26042bf5be061d061dfde20b13fbcf0b26042bf5be061d061dfde20b13fbcf0b26042bf5be061d061dfde20b13fbcf0b26042bf5be061d061dfde20b13fbcf0b26042bf5be061d061dfde20b13fbcf0b26042bf5be061d061dfde20b13fbcf0b26042bf5be,0,0,0000000000000000000000000000000000000000000000000000000000000000000000000000000000000000000000000000000000000000000000000000000000000000000000000000000000000000000000000000000000000000000000000000000000000000000000000000000000000000000000000000000000000000
13,13,0,0,0,061d061dfde20b13fbcf0b26042bf5be061d061dfde20b13fbcf0b26042bf5be061d061dfde20b13fbcf0b26042bf5be061d061dfde20b13fbcf0b26042bf5be061d061dfde20b13fbcf0b26042bf5be061d061dfde20b13fbcf0b26042bf5be061d061dfde20b13fbcf0b26042bf5be061d061dfde20b13fbcf0b26042bf5be,0,0,0000000000000000000000000000000000000000000000000000000000000000000000000000000000000000000000000000000000000000000000000000000000000000000000000000000000000000000000000000000000000000000000000000000000000000000000000000000000000000000000000000000000000000
14,14,0,0,0,061d061dfde20b13fbcf0b26042bf5be061d061dfde20b13fbcf0b26042bf5be061d061dfde20b13fbcf0b26042bf5be061d061dfde20b13fbcf0b26042bf5be061d061dfde20b13fbcf0b26042bf5be061d061dfde20b13fbcf0b26042bf5be061d061dfde20b13fbcf0b26042bf5be061d061dfde20b13fbcf0b26042bf5be,0,0,0000000000000000000000000000000000000000000000000000000000000000000000000000000000000000000000000000000000000000000000000000000000000000000000000000000000000000000000000000000000000000000000000000000000000000000000000000000000000000000000000000000000000000
15,15,0,0,0,061d061dfde20b13fbcf0b26042bf5be061d061dfde20b13fbcf0b26042bf5be061d061dfde20b13fbcf0b26042bf5be061d061dfde20b13fbcf0b26042bf5be061d061dfde20b13fbcf0b26042bf5be061d061dfde20b13fbcf0b26042bf5be061d061dfde20b13fbcf0b26042bf5be061d061dfde20b13fbcf0b26042bf5be,0,0,0000000000000000000000000000000000000000000000000000000000000000000000000000000000000000000000000000000000000000000000000000000000000000000000000000000000000000000000000000000000000000000000000000000000000000000000000000000000000000000000000000000000000000
16,16,0,0,0,061d061dfde20b13fbcf0b26042bf5be061d061dfde20b13fbcf0b26042bf5be061d061dfde20b13fbcf0b26042bf5be061d061dfde20b13fbcf0b26042bf5be061d061dfde20b13fbcf0b26042bf5be061d061dfde20b13fbcf0b26042bf5be061d061dfde20b13fbcf0b26042bf5be061d061dfde20b13fbcf0b26042bf5be,0,0,0000000000000000000000000000000000000000000000000000000000000000000000000000000000000000000000000000000000000000000000000000000000000000000000000000000000000000000000000000000000000000000000000000000000000000000000000000000000000000000000000000000000000000
17,17,0,0,0,061d061dfde20b13fbcf0b26042bf5be061d061dfde20b13fbcf0b26042bf5be061d061dfde20b13fbcf0b26042bf5be061d061dfde20b13fbcf0b26042bf5be061d061dfde20b13fbcf0b26042bf5be061d061dfde20b13fbcf0b26042bf5be061d061dfde20b13fbcf0b26042bf5be061d061dfde20b13fbcf0b26042bf5be,0,0,0000000000000000000000000000000000000000000000000000000000000000000000000000000000000000000000000000000000000000000000000000000000000000000000000000000000000000000000000000000000000000000000000000000000000000000000000000000000000000000000000000000000000000
18,18,0,0,0,061d061dfde20b13fbcf0b26042bf5be061d061dfde20b13fbcf0b26042bf5be061d061dfde20b13fbcf0b26042bf5be061d061dfde20b13fbcf0b26042bf5be061d061dfde20b13fbcf0b26042bf5be061d061dfde20b13fbcf0b26042bf5be061d061dfde20b13fbcf0b26042bf5be061d061dfde20b13fbcf0b26042bf5be,0,0,0000000000000000000000000000000000000000000000000000000000000000000000000000000000000000000000000000000000000000000000000000000000000000000000000000000000000000000000000000000000000000000000000000000000000000000000000000000000000000000000000000000000000000
19,19,0,0,0,061d061dfde20b13fbcf0b26042bf5be061d061dfde20b13fbcf0b26042bf5be061d061dfde20b13fbcf0b26042bf5be061d061dfde20b13fbcf0b26042bf5be061d061dfde20b13fbcf0b26042bf5be061d061dfde20b13fbcf0b26042bf5be061d061dfde20b13fbcf0b26042bf5be061d061dfde20b13fbcf0b26042bf5be,0,0,0000000000000000000000000000000000000000000000000000000000000000000000000000000000000000000000000000000000000000000000000000000000000000000000000000000000000000000000000000000000000000000000000000000000000000000000000000000000000000000000000000000000000000
20,20,1,0,0,061d061dfde20b13fbcf0b26042bf5be061d061dfde20b13fbcf0b26042bf5be061d061dfde20b13fbcf0b26042bf5be061d061dfde20b13fbcf0b26042bf5be061d061dfde20b13fbcf0b26042bf5be061d061dfde20b13fbcf0b26042bf5be061d061dfde20b13fbcf0b26042bf5be061d061dfde20b13fbcf0b26042bf5be,0,0,0000000000000000000000000000000000000000000000000000000000000000000000000000000000000000000000000000000000000000000000000000000000000000000000000000000000000000000000000000000000000000000000000000000000000000000000000000000000000000000000000000000000000000
21,21,0,0,0,061d061dfde20b13fbcf0b26042bf5be061d061dfde20b13fbcf0b26042bf5be061d061dfde20b13fbcf0b26042bf5be061d061dfde20b13fbcf0b26042bf5be061d061dfde20b13fbcf0b26042bf5be061d061dfde20b13fbcf0b26042bf5be061d061dfde20b13fbcf0b26042bf5be061d061dfde20b13fbcf0b26042bf5be,0,0,0000000000000000000000000000000000000000000000000000000000000000000000000000000000000000000000000000000000000000000000000000000000000000000000000000000000000000000000000000000000000000000000000000000000000000000000000000000000000000000000000000000000000000
22,22,0,0,0,061d061dfde20b13fbcf0b26042bf5be061d061dfde20b13fbcf0b26042bf5be061d061dfde20b13fbcf0b26042bf5be061d061dfde20b13fbcf0b26042bf5be061d061dfde20b13fbcf0b26042bf5be061d061dfde20b13fbcf0b26042bf5be061d061dfde20b13fbcf0b26042bf5be061d061dfde20b13fbcf0b26042bf5be,0,0,0000000000000000000000000000000000000000000000000000000000000000000000000000000000000000000000000000000000000000000000000000000000000000000000000000000000000000000000000000000000000000000000000000000000000000000000000000000000000000000000000000000000000000
23,23,0,0,0,061d061dfde20b13fbcf0b26042bf5be061d061dfde20b13fbcf0b26042bf5be061d061dfde20b13fbcf0b26042bf5be061d061dfde20b13fbcf0b26042bf5be061d061dfde20b13fbcf0b26042bf5be061d061dfde20b13fbcf0b26042bf5be061d061dfde20b13fbcf0b26042bf5be061d061dfde20b13fbcf0b26042bf5be,1,0,0000000000000000000000000000000000000000000000000000000000000000000000000000000000000000000000000000000000000000000000000000000000000000000000000000000000000000000000000000000000000000000000000000000000000000000000000000000000000000000000000000000000000000
24,24,0,0,1,061d061dfde20b13fbcf0b26042bf5be061d061dfde20b13fbcf0b26042bf5be061d061dfde20b13fbcf0b26042bf5be061d061dfde20b13fbcf0b26042bf5be061d061dfde20b13fbcf0b26042bf5be061d061dfde20b13fbcf0b26042bf5be061d061dfde20b13fbcf0b26042bf5be061d061dfde20b13fbcf0b26042bf5be,1,0,8000800080008000800080008000800080008000800080008000800080008000800080008000800080008000800080008000800080008000800080008000800080008000800080008000800080008000800080008000800080008000800080008000800080008000800080008000800080008000800080008000800080008000
25,25,0,0,1,fa60042dffbff46a0a79f8b9fbccf55dfa60042dffbff46a0a79f8b9fbccf55dfa60042dffbff46a0a79f8b9fbccf55dfa60042dffbff46a0a79f8b9fbccf55dfa60042dffbff46a0a79f8b9fbccf55dfa60042dffbff46a0a79f8b9fbccf55dfa60042dffbff46a0a79f8b9fbccf55dfa60042dffbff46a0a79f8b9fbccf55d,1,0,0400040004000400040004000400040004000400040004000400040004000400040004000400040004000400040004000400040004000400040004000400040004000400040004000400040004000400040004000400040004000400040004000400040004000400040004000400040004000400040004000400040004000400
26,26,0,0,1,00f70ac00a9909d6ff4df72dff900b2a00f70ac00a9909d6ff4df72dff900b2a00f70ac00a9909d6ff4df72dff900b2a00f70ac00a9909d6ff4df72dff900b2a00f70ac00a9909d6ff4df72dff900b2a00f70ac00a9909d6ff4df72dff900b2a00f70ac00a9909d6ff4df72dff900b2a00f70ac00a9909d6ff4df72dff900b2a,1,0,0400040004000400040004000400040004000400040004000400040004000400040004000400040004000400040004000400040004000400040004000400040004000400040004000400040004000400040004000400040004000400040004000400040004000400040004000400040004000400040004000400040004000400
27,27,0,0,1,061d061dfde20b13fbcf0b26042bf5be061d061dfde20b13fbcf0b26042bf5be061d061dfde20b13fbcf0b26042bf5be061d061dfde20b13fbcf0b26042bf5be061d061dfde20b13fbcf0b26042bf5be061d061dfde20b13fbcf0b26042bf5be061d061dfde20b13fbcf0b26042bf5be061d061dfde20b13fbcf0b26042bf5be,1,0,0400040004000400040004000400040004000400040004000400040004000400040004000400040004000400040004000400040004000400040004000400040004000400040004000400040004000400040004000400040004000400040004000400040004000400040004000400040004000400040004000400040004000400
28,28,0,0,1,fa60042dffbff46a0a79f8b9fbccf55dfa60042dffbff46a0a79f8b9fbccf55dfa60042dffbff46a0a79f8b9fbccf55dfa60042dffbff46a0a79f8b9fbccf55dfa60042dffbff46a0a79f8b9fbccf55dfa60042dffbff46a0a79f8b9fbccf55dfa60042dffbff46a0a79f8b9fbccf55dfa60042dffbff46a0a79f8b9fbccf55d,1,0,0400040004000400040004000400040004000400040004000400040004000400040004000400040004000400040004000400040004000400040004000400040004000400040004000400040004000400040004000400040004000400040004000400040004000400040004000400040004000400040004000400040004000400
29,29,0,0,1,00f70ac00a9909d6ff4df72dff900b2a00f70ac00a9909d6ff4df72dff900b2a00f70ac00a9909d6ff4df72dff900b2a00f70ac00a9909d6ff4df72dff900b2a00f70ac00a9909d6ff4df72dff900b2a00f70ac00a9909d6ff4df72dff900b2a00f70ac00a9909d6ff4df72dff900b2a00f70ac00a9909d6ff4df72dff900b2a,1,0,0400040004000400040004000400040004000400040004000400040004000400040004000400040004000400040004000400040004000400040004000400040004000400040004000400040004000400040004000400040004000400040004000400040004000400040004000400040004000400040004000400040004000400
30,30,0,0,1,061d061dfde20b13fbcf0b26042bf5be061d061dfde20b13fbcf0b26042bf5be061d061dfde20b13fbcf0b26042bf5be061d061dfde20b13fbcf0b26042bf5be061d061dfde20b13fbcf0b26042bf5be061d061dfde20b13fbcf0b26042bf5be061d061dfde20b13fbcf0b26042bf5be061d061dfde20b13fbcf0b26042bf5be,1,0,0400040004000400040004000400040004000400040004000400040004000400040004000400040004000400040004000400040004000400040004000400040004000400040004000400040004000400040004000400040004000400040004000400040004000400040004000400040004000400040004000400040004000400
31,31,0,0,1,fa60042dffbff46a0a79f8b9fbccf55dfa60042dffbff46a0a79f8b9fbccf55dfa60042dffbff46a0a79f8b9fbccf55dfa60042dffbff46a0a79f8b9fbccf55dfa60042dffbff46a0a79f8b9fbccf55dfa60042dffbff46a0a79f8b9fbccf55dfa60042dffbff46a0a79f8b9fbccf55dfa60042dffbff46a0a79f8b9fbccf55d,1,0,0400040004000400040004000400040004000400040004000400040004000400040004000400040004000400040004000400040004000400040004000400040004000400040004000400040004000400040004000400040004000400040004000400040004000400040004000400040004000400040004000400040004000400
32,32,0,0,1,00f70ac00a9909d6ff4df72dff900b2a00f70ac00a9909d6ff4df72dff900b2a00f70ac00a9909d6ff4df72dff900b2a00f70ac00a9909d6ff4df72dff900b2a00f70ac00a9909d6ff4df72dff900b2a00f70ac00a9909d6ff4df72dff900b2a00f70ac00a9909d6ff4df72dff900b2a00f70ac00a9909d6ff4df72dff900b2a,1,0,0020002000200020002000200020002000200020002000200020002000200020002000200020002000200020002000200020002000200020002000200020002000200020002000200020002000200020002000200020002000200020002000200020002000200020002000200020002000200020002000200020002000200020
33,33,0,0,1,061d061dfde20b13fbcf0b26042bf5be061d061dfde20b13fbcf0b26042bf5be061d061dfde20b13fbcf0b26042bf5be061d061dfde20b13fbcf0b26042bf5be061d061dfde20b13fbcf0b26042bf5be061d061dfde20b13fbcf0b26042bf5be061d061dfde20b13fbcf0b26042bf5be061d061dfde20b13fbcf0b26042bf5be,1,0,0020002000200020002000200020002000200020002000200020002000200020002000200020002000200020002000200020002000200020002000200020002000200020002000200020002000200020002000200020002000200020002000200020002000200020002000200020002000200020002000200020002000200020
34,34,0,0,1,fa60042dffbff46a0a79f8b9fbccf55dfa60042dffbff46a0a79f8b9fbccf55dfa60042dffbff46a0a79f8b9fbccf55dfa60042dffbff46a0a79f8b9fbccf55dfa60042dffbff46a0a79f8b9fbccf55dfa60042dffbff46a0a79f8b9fbccf55dfa60042dffbff46a0a79f8b9fbccf55dfa60042dffbff46a0a79f8b9fbccf55d,1,0,0020002000200020002000200020002000200020002000200020002000200020002000200020002000200020002000200020002000200020002000200020002000200020002000200020002000200020002000200020002000200020002000200020002000200020002000200020002000200020002000200020002000200020
35,35,0,0,1,00f70ac00a9909d6ff4df72dff900b2a00f70ac00a9909d6ff4df72dff900b2a00f70ac00a9909d6ff4df72dff900b2a00f70ac00a9909d6ff4df72dff900b2a00f70ac00a9909d6ff4df72dff900b2a00f70ac00a9909d6ff4df72dff900b2a00f70ac00a9909d6ff4df72dff900b2a00f70ac00a9909d6ff4df72dff900b2a,1,0,0020002000200020002000200020002000200020002000200020002000200020002000200020002000200020002000200020002000200020002000200020002000200020002000200020002000200020002000200020002000200020002000200020002000200020002000200020002000200020002000200020002000200020
36,36,0,0,1,061d061dfde20b13fbcf0b26042bf5be061d061dfde20b13fbcf0b26042bf5be061d061dfde20b13fbcf0b26042bf5be061d061dfde20b13fbcf0b26042bf5be061d061dfde20b13fbcf0b26042bf5be061d061dfde20b13fbcf0b26042bf5be061d061dfde20b13fbcf0b26042bf5be061d061dfde20b13fbcf0b26042bf5be,1,0,0020002000200020002000200020002000200020002000200020002000200020002000200020002000200020002000200020002000200020002000200020002000200020002000200020002000200020002000200020002000200020002000200020002000200020002000200020002000200020002000200020002000200020
