Sample in Buffer,Sample in Window,TRIGGER,clk_IBUF_BUFG,valid_in,in_x_flat[1023:0],en,valid_out,prob_flat[1023:0]
Radix - UNSIGNED,UNSIGNED,UNSIGNED,HEX,HEX,HEX,HEX,HEX,HEX
0,0,0,0,0,f83efb25fcb60b3d00eefe2203bd05c90413f96d08fdfc3cfd5606e903b4f491f4f10b89f4270656f71cfe6af6670997ff0af94507e9f853fe0ef8b8041c0174037a04990492f808092bfe290001fd74f8a4f8aa0a28f84f031a0086ff3ffc4f0a60f830fba00bc4ffd3090cfa070be5078af90afd4ffe360349f75efa82f883,0,0,0000000000000000000000000000000000000000000000000000000000000000000000000000000000000000000000000000000000000000000000000000000000000000000000000000000000000000000000000000000000000000000000000000000000000000000000000000000000000000000000000000000000000000
1,1,0,0,0,f83efb25fcb60b3d00eefe2203bd05c90413f96d08fdfc3cfd5606e903b4f491f4f10b89f4270656f71cfe6af6670997ff0af94507e9f853fe0ef8b8041c0174037a04990492f808092bfe290001fd74f8a4f8aa0a28f84f031a0086ff3ffc4f0a60f830fba00bc4ffd3090cfa070be5078af90afd4ffe360349f75efa82f883,0,0,0000000000000000000000000000000000000000000000000000000000000000000000000000000000000000000000000000000000000000000000000000000000000000000000000000000000000000000000000000000000000000000000000000000000000000000000000000000000000000000000000000000000000000
2,2,0,0,0,f83efb25fcb60b3d00eefe2203bd05c90413f96d08fdfc3cfd5606e903b4f491f4f10b89f4270656f71cfe6af6670997ff0af94507e9f853fe0ef8b8041c0174037a04990492f808092bfe290001fd74f8a4f8aa0a28f84f031a0086ff3ffc4f0a60f830fba00bc4ffd3090cfa070be5078af90afd4ffe360349f75efa82f883,0,0,0000000000000000000000000000000000000000000000000000000000000000000000000000000000000000000000000000000000000000000000000000000000000000000000000000000000000000000000000000000000000000000000000000000000000000000000000000000000000000000000000000000000000000
3,3,0,0,0,f83efb25fcb60b3d00eefe2203bd05c90413f96d08fdfc3cfd5606e903b4f491f4f10b89f4270656f71cfe6af6670997ff0af94507e9f853fe0ef8b8041c0174037a04990492f808092bfe290001fd74f8a4f8aa0a28f84f031a0086ff3ffc4f0a60f830fba00bc4ffd3090cfa070be5078af90afd4ffe360349f75efa82f883,0,0,0000000000000000000000000000000000000000000000000000000000000000000000000000000000000000000000000000000000000000000000000000000000000000000000000000000000000000000000000000000000000000000000000000000000000000000000000000000000000000000000000000000000000000
4,4,0,0,0,f83efb25fcb60b3d00eefe2203bd05c90413f96d08fdfc3cfd5606e903b4f491f4f10b89f4270656f71cfe6af6670997ff0af94507e9f853fe0ef8b8041c0174037a04990492f808092bfe290001fd74f8a4f8aa0a28f84f031a0086ff3ffc4f0a60f830fba00bc4ffd3090cfa070be5078af90afd4ffe360349f75efa82f883,0,0,0000000000000000000000000000000000000000000000000000000000000000000000000000000000000000000000000000000000000000000000000000000000000000000000000000000000000000000000000000000000000000000000000000000000000000000000000000000000000000000000000000000000000000
5,5,0,0,0,f83efb25fcb60b3d00eefe2203bd05c90413f96d08fdfc3cfd5606e903b4f491f4f10b89f4270656f71cfe6af6670997ff0af94507e9f853fe0ef8b8041c0174037a04990492f808092bfe290001fd74f8a4f8aa0a28f84f031a0086ff3ffc4f0a60f830fba00bc4ffd3090cfa070be5078af90afd4ffe360349f75efa82f883,0,0,0000000000000000000000000000000000000000000000000000000000000000000000000000000000000000000000000000000000000000000000000000000000000000000000000000000000000000000000000000000000000000000000000000000000000000000000000000000000000000000000000000000000000000
6,6,0,0,0,f83efb25fcb60b3d00eefe2203bd05c90413f96d08fdfc3cfd5606e903b4f491f4f10b89f4270656f71cfe6af6670997ff0af94507e9f853fe0ef8b8041c0174037a04990492f808092bfe290001fd74f8a4f8aa0a28f84f031a0086ff3ffc4f0a60f830fba00bc4ffd3090cfa070be5078af90afd4ffe360349f75efa82f883,0,0,0000000000000000000000000000000000000000000000000000000000000000000000000000000000000000000000000000000000000000000000000000000000000000000000000000000000000000000000000000000000000000000000000000000000000000000000000000000000000000000000000000000000000000
7,7,0,0,0,f83efb25fcb60b3d00eefe2203bd05c90413f96d08fdfc3cfd5606e903b4f491f4f10b89f4270656f71cfe6af6670997ff0af94507e9f853fe0ef8b8041c0174037a04990492f808092bfe290001fd74f8a4f8aa0a28f84f031a0086ff3ffc4f0a60f830fba00bc4ffd3090cfa070be5078af90afd4ffe360349f75efa82f883,0,0,0000000000000000000000000000000000000000000000000000000000000000000000000000000000000000000000000000000000000000000000000000000000000000000000000000000000000000000000000000000000000000000000000000000000000000000000000000000000000000000000000000000000000000
8,8,0,0,0,f83efb25fcb60b3d00eefe2203bd05c90413f96d08fdfc3cfd5606e903b4f491f4f10b89f4270656f71cfe6af6670997ff0af94507e9f853fe0ef8b8041c0174037a04990492f808092bfe290001fd74f8a4f8aa0a28f84f031a0086ff3ffc4f0a60f830fba00bc4ffd3090cfa070be5078af90afd4ffe360349f75efa82f883,0,0,0000000000000000000000000000000000000000000000000000000000000000000000000000000000000000000000000000000000000000000000000000000000000000000000000000000000000000000000000000000000000000000000000000000000000000000000000000000000000000000000000000000000000000
9,9,0,0,0,f83efb25fcb60b3d00eefe2203bd05c90413f96d08fdfc3cfd5606e903b4f491f4f10b89f4270656f71cfe6af6670997ff0af94507e9f853fe0ef8b8041c0174037a04990492f808092bfe290001fd74f8a4f8aa0a28f84f031a0086ff3ffc4f0a60f830fba00bc4ffd3090cfa070be5078af90afd4ffe360349f75efa82f883,0,0,0000000000000000000000000000000000000000000000000000000000000000000000000000000000000000000000000000000000000000000000000000000000000000000000000000000000000000000000000000000000000000000000000000000000000000000000000000000000000000000000000000000000000000
10,10,0,0,0,f83efb25fcb60b3d00eefe2203bd05c90413f96d08fdfc3cfd5606e903b4f491f4f10b89f4270656f71cfe6af6670997ff0af94507e9f853fe0ef8b8041c0174037a04990492f808092bfe290001fd74f8a4f8aa0a28f84f031a0086ff3ffc4f0a60f830fba00bc4ffd3090cfa070be5078af90afd4ffe360349f75efa82f883,0,0,0000000000000000000000000000000000000000000000000000000000000000000000000000000000000000000000000000000000000000000000000000000000000000000000000000000000000000000000000000000000000000000000000000000000000000000000000000000000000000000000000000000000000000
11,11,0,0,0,f83efb25fcb60b3d00eefe2203bd05c90413f96d08fdfc3cfd5606e903b4f491f4f10b89f4270656f71cfe6af6670997ff0af94507e9f853fe0ef8b8041c0174037a04990492f808092bfe290001fd74f8a4f8aa0a28f84f031a0086ff3ffc4f0a60f830fba00bc4ffd3090cfa070be5078af90afd4ffe360349f75efa82f883,0,0,0000000000000000000000000000000000000000000000000000000000000000000000000000000000000000000000000000000000000000000000000000000000000000000000000000000000000000000000000000000000000000000000000000000000000000000000000000000000000000000000000000000000000000
12,12,0,0,0,f83efb25fcb60b3d00eefe2203bd05c90413f96d08fdfc3cfd5606e903b4f491f4f10b89f4270656f71cfe6af6670997ff0af94507e9f853fe0ef8b8041c0174037a04990492f808092bfe290001fd74f8a4f8aa0a28f84f031a0086ff3ffc4f0a60f830fba00bc4ffd3090cfa070be5078af90afd4ffe360349f75efa82f883,0,0,0000000000000000000000000000000000000000000000000000000000000000000000000000000000000000000000000000000000000000000000000000000000000000000000000000000000000000000000000000000000000000000000000000000000000000000000000000000000000000000000000000000000000000
13,13,0,0,0,f83efb25fcb60b3d00eefe2203bd05c90413f96d08fdfc3cfd5606e903b4f491f4f10b89f4270656f71cfe6af6670997ff0af94507e9f853fe0ef8b8041c0174037a04990492f808092bfe290001fd74f8a4f8aa0a28f84f031a0086ff3ffc4f0a60f830fba00bc4ffd3090cfa070be5078af90afd4ffe360349f75efa82f883,0,0,0000000000000000000000000000000000000000000000000000000000000000000000000000000000000000000000000000000000000000000000000000000000000000000000000000000000000000000000000000000000000000000000000000000000000000000000000000000000000000000000000000000000000000
14,14,0,0,0,f83efb25fcb60b3d00eefe2203bd05c90413f96d08fdfc3cfd5606e903b4f491f4f10b89f4270656f71cfe6af6670997ff0af94507e9f853fe0ef8b8041c0174037a04990492f808092bfe290001fd74f8a4f8aa0a28f84f031a0086ff3ffc4f0a60f830fba00bc4ffd3090cfa070be5078af90afd4ffe360349f75efa82f883,0,0,0000000000000000000000000000000000000000000000000000000000000000000000000000000000000000000000000000000000000000000000000000000000000000000000000000000000000000000000000000000000000000000000000000000000000000000000000000000000000000000000000000000000000000
15,15,0,0,0,f83efb25fcb60b3d00eefe2203bd05c90413f96d08fdfc3cfd5606e903b4f491f4f10b89f4270656f71cfe6af6670997ff0af94507e9f853fe0ef8b8041c0174037a04990492f808092bfe290001fd74f8a4f8aa0a28f84f031a0086ff3ffc4f0a60f830fba00bc4ffd3090cfa070be5078af90afd4ffe360349f75efa82f883,0,0,0000000000000000000000000000000000000000000000000000000000000000000000000000000000000000000000000000000000000000000000000000000000000000000000000000000000000000000000000000000000000000000000000000000000000000000000000000000000000000000000000000000000000000
16,16,0,0,0,f83efb25fcb60b3d00eefe2203bd05c90413f96d08fdfc3cfd5606e903b4f491f4f10b89f4270656f71cfe6af6670997ff0af94507e9f853fe0ef8b8041c0174037a04990492f808092bfe290001fd74f8a4f8aa0a28f84f031a0086ff3ffc4f0a60f830fba00bc4ffd3090cfa070be5078af90afd4ffe360349f75efa82f883,0,0,0000000000000000000000000000000000000000000000000000000000000000000000000000000000000000000000000000000000000000000000000000000000000000000000000000000000000000000000000000000000000000000000000000000000000000000000000000000000000000000000000000000000000000
17,17,0,0,0,f83efb25fcb60b3d00eefe2203bd05c90413f96d08fdfc3cfd5606e903b4f491f4f10b89f4270656f71cfe6af6670997ff0af94507e9f853fe0ef8b8041c0174037a04990492f808092bfe290001fd74f8a4f8aa0a28f84f031a0086ff3ffc4f0a60f830fba00bc4ffd3090cfa070be5078af90afd4ffe360349f75efa82f883,0,0,0000000000000000000000000000000000000000000000000000000000000000000000000000000000000000000000000000000000000000000000000000000000000000000000000000000000000000000000000000000000000000000000000000000000000000000000000000000000000000000000000000000000000000
18,18,0,0,0,f83efb25fcb60b3d00eefe2203bd05c90413f96d08fdfc3cfd5606e903b4f491f4f10b89f4270656f71cfe6af6670997ff0af94507e9f853fe0ef8b8041c0174037a04990492f808092bfe290001fd74f8a4f8aa0a28f84f031a0086ff3ffc4f0a60f830fba00bc4ffd3090cfa070be5078af90afd4ffe360349f75efa82f883,0,0,0000000000000000000000000000000000000000000000000000000000000000000000000000000000000000000000000000000000000000000000000000000000000000000000000000000000000000000000000000000000000000000000000000000000000000000000000000000000000000000000000000000000000000
19,19,0,0,0,f83efb25fcb60b3d00eefe2203bd05c90413f96d08fdfc3cfd5606e903b4f491f4f10b89f4270656f71cfe6af6670997ff0af94507e9f853fe0ef8b8041c0174037a04990492f808092bfe290001fd74f8a4f8aa0a28f84f031a0086ff3ffc4f0a60f830fba00bc4ffd3090cfa070be5078af90afd4ffe360349f75efa82f883,0,0,0000000000000000000000000000000000000000000000000000000000000000000000000000000000000000000000000000000000000000000000000000000000000000000000000000000000000000000000000000000000000000000000000000000000000000000000000000000000000000000000000000000000000000
20,20,1,0,0,f83efb25fcb60b3d00eefe2203bd05c90413f96d08fdfc3cfd5606e903b4f491f4f10b89f4270656f71cfe6af6670997ff0af94507e9f853fe0ef8b8041c0174037a04990492f808092bfe290001fd74f8a4f8aa0a28f84f031a0086ff3ffc4f0a60f830fba00bc4ffd3090cfa070be5078af90afd4ffe360349f75efa82f883,0,0,0000000000000000000000000000000000000000000000000000000000000000000000000000000000000000000000000000000000000000000000000000000000000000000000000000000000000000000000000000000000000000000000000000000000000000000000000000000000000000000000000000000000000000
21,21,0,0,0,f83efb25fcb60b3d00eefe2203bd05c90413f96d08fdfc3cfd5606e903b4f491f4f10b89f4270656f71cfe6af6670997ff0af94507e9f853fe0ef8b8041c0174037a04990492f808092bfe290001fd74f8a4f8aa0a28f84f031a0086ff3ffc4f0a60f830fba00bc4ffd3090cfa070be5078af90afd4ffe360349f75efa82f883,0,0,0000000000000000000000000000000000000000000000000000000000000000000000000000000000000000000000000000000000000000000000000000000000000000000000000000000000000000000000000000000000000000000000000000000000000000000000000000000000000000000000000000000000000000
22,22,0,0,0,f83efb25fcb60b3d00eefe2203bd05c90413f96d08fdfc3cfd5606e903b4f491f4f10b89f4270656f71cfe6af6670997ff0af94507e9f853fe0ef8b8041c0174037a04990492f808092bfe290001fd74f8a4f8aa0a28f84f031a0086ff3ffc4f0a60f830fba00bc4ffd3090cfa070be5078af90afd4ffe360349f75efa82f883,1,0,0000000000000000000000000000000000000000000000000000000000000000000000000000000000000000000000000000000000000000000000000000000000000000000000000000000000000000000000000000000000000000000000000000000000000000000000000000000000000000000000000000000000000000
23,23,0,0,1,f83efb25fcb60b3d00eefe2203bd05c90413f96d08fdfc3cfd5606e903b4f491f4f10b89f4270656f71cfe6af6670997ff0af94507e9f853fe0ef8b8041c0174037a04990492f808092bfe290001fd74f8a4f8aa0a28f84f031a0086ff3ffc4f0a60f830fba00bc4ffd3090cfa070be5078af90afd4ffe360349f75efa82f883,1,0,8000800080008000800080008000800080008000800080008000800080008000800080008000800080008000800080008000800080008000800080008000800080008000800080008000800080008000800080008000800080008000800080008000800080008000800080008000800080008000800080008000800080008000
24,24,0,0,1,09f7f72ff56304cb04450bb301f1f9bbfc0f002e0b31fa63f56203b5ff61f7b609ef08a2fa47fcc8041706edfa0e063a0701fa0600ab0b1a05ecf565035802b8096afc790738fe9f06e4fdc8f6530bac021b003104760240fcc2f62df922fa10f5890af9f47cfd47fae80342086ffdd2fe7807ccf449f698f67202d7fd47ff7b,1,0,0400040004000400040004000400040004000400040004000400040004000400040004000400040004000400040004000400040004000400040004000400040004000400040004000400040004000400040004000400040004000400040004000400040004000400040004000400040004000400040004000400040004000400
25,25,0,0,1,fdbb06f200a105edf4a4f97cf9ad086105b705c7fa67f71bfc750218ff2200c1fcf00728fecb0749029100e50667f4c8fb22fca0fc560b830b9a08040b20f486f9220861060cfcdb04e0f933fc15019908f10b2e07cbffc0fbdbfd95ff160149f8ac0943fce1fd66f72bfdb0fa8008c60443fc9601fc05fc0623043e04ea0a1b,1,0,0400040004000400040004000400040004000400040004000400040004000400040004000400040004000400040004000400040004000400040004000400040004000400040004000400040004000400040004000400040004000400040004000400040004000400040004000400040004000400040004000400040004000400
26,26,0,0,1,f4740644048d024dfbc104d5f85801200bd2fb89fac8f4e206fb04bb01ff012ef529f93efbadf5d7f6270ba80ac00a6d034600aaf537fb08fa3b0a55fed9f702fc26fc25f5b60b7308a7ffd4fa86098603e2ffa700730515ffd205abffe908fe0183075afa3efd94fa07fbb7f89807400a1b009a03ba029e03af079905fb0294,1,0,0400040004000400040004000400040004000400040004000400040004000400040004000400040004000400040004000400040004000400040004000400040004000400040004000400040004000400040004000400040004000400040004000400040004000400040004000400040004000400040004000400040004000400
27,27,0,0,1,f9abf91209c20afdffe007e40800fd070a78f7d10b84fe24f6dc0008050609660a65f58f04a3f993f63506c10274f53cf9430ad0fbf7fc2ef7cf0a38fd4a004d00ccfbe6f800f47309f008b10165ff85f967fa1907e30ba007c80746f650043c00f207eb01f7f491f78bfe92f97ff4dc0bb80915ff160b340639077501b90414,1,0,0400040004000400040004000400040004000400040004000400040004000400040004000400040004000400040004000400040004000400040004000400040004000400040004000400040004000400040004000400040004000400040004000400040004000400040004000400040004000400040004000400040004000400
28,28,0,0,1,003502790321f6f0071ef85d06f800240bc90433002002ff03d30b0bfb6ef82202f603d2f4b903a0fab5f941fd4dfa56f424f9bd03db0476f79d0ba40ab4fe0a006b02cff4bdf8b5030c0b9b059206b3fbf0f93c00300721feb7021e02f9f422092207ad0b0a03bd0b21f8aaf575f7a409d9fe7d04350b16f782f4a0fe59076c,1,0,0400040004000400040004000400040004000400040004000400040004000400040004000400040004000400040004000400040004000400040004000400040004000400040004000400040004000400040004000400040004000400040004000400040004000400040004000400040004000400040004000400040004000400
29,29,0,0,1,0ae104caf9630bf7068af6eefe3efe4a02e7081a097cfaae058ffc67f55d0920fe3e0bfef5760055025e07fef8bf02d4f971f5c501880ab5f99efbc100ac002fffe4036f096e00edfca3f83cfc31fbebf9a6093d04dbf58f04f70223f5150b660352048a0398ff8103d1fac90b54f8270083ff61ffdff9f800e1f61fff18fa7f,1,0,0400040004000400040004000400040004000400040004000400040004000400040004000400040004000400040004000400040004000400040004000400040004000400040004000400040004000400040004000400040004000400040004000400040004000400040004000400040004000400040004000400040004000400
30,30,0,0,1,0a6f0794f6c5f7a0f647042ef9ea0adfff0307650326f97cf50f0be005a501310824f42df84800d5ff33024005f508b30423fe760826fd41f463f40df9b7008e01be09d5fe45ff0df657fe4b00e9fa0d04b5001bf4ff01ae0af80316f992f6960a98fce0ff47fc81f4c707090bb202bc0915f595fb7cf47103dcfabe013a068b,1,0,0400040004000400040004000400040004000400040004000400040004000400040004000400040004000400040004000400040004000400040004000400040004000400040004000400040004000400040004000400040004000400040004000400040004000400040004000400040004000400040004000400040004000400
31,31,0,0,1,fd0d0900fe29f77a07ac04f309f3f534002104a8030e01d10b43fe53ff13f43bf8bef83c0b4c09a3f61d0abe013d0ae1f91af4fbf783fd9105a70490085cf566fbd8fa3af48707fd09500a47095c074804a9ff1609fb054501e9061afeef041503c6fe7308f3f890fbf3010cfa24fe39f61e0acdfcd4f90000c70459060e0a53,1,0,0020002000200020002000200020002000200020002000200020002000200020002000200020002000200020002000200020002000200020002000200020002000200020002000200020002000200020002000200020002000200020002000200020002000200020002000200020002000200020002000200020002000200020
32,32,0,0,1,08c1f62007c4fd0efc7ffafaffaaf75ef46ef51df5320601f99e02c4ff53070cf9f4015204a90375f76d09aff9c3f6c700a2f6630204f6340739fb53021afa8702120a73065cfffc0777f7ecf54a0942f4ec05330873fb7706ff09b801fafe6bf66fffb2f63afda4f4bd0602063eff930091fa7205fbf5400487f48e065ffa1b,1,0,0020002000200020002000200020002000200020002000200020002000200020002000200020002000200020002000200020002000200020002000200020002000200020002000200020002000200020002000200020002000200020002000200020002000200020002000200020002000200020002000200020002000200020
33,33,0,0,1,fbea01b00a2afc1bf586f50cfd36f7d708dbfc370a07fe280af5f7b0fa54f6f00786f9c6f4a8fa2700630bc5fb1e067a0939febefd81fe8106dcfe1c0259fd4d04740b06fd83ff94faa3fc9b044bf468f8660af10a7cf95802c2f8a1f7490525f887014903f106b20a76047bfb20f8a9fdd9005aff580531f40f07bcfc9c02ec,1,0,0020002000200020002000200020002000200020002000200020002000200020002000200020002000200020002000200020002000200020002000200020002000200020002000200020002000200020002000200020002000200020002000200020002000200020002000200020002000200020002000200020002000200020
34,34,0,0,1,05ccf58ff476fadafd2df4c006f409afff91fc1f0998fd16ff79fed8005704e2f522084afe66f71a0a7f078505b00333f9adfcf802b907ca02dcfbd908cbf4c4f94d04cc0ab8fdb4fee806510b14ff34081708280916fe1b071cf9540272f4da0b3af86f00b2042d093a04090b6404a6034c0b45f5c10b990bb4ffe402c407d6,1,0,0020002000200020002000200020002000200020002000200020002000200020002000200020002000200020002000200020002000200020002000200020002000200020002000200020002000200020002000200020002000200020002000200020002000200020002000200020002000200020002000200020002000200020
35,35,0,0,1,0061ff14f7a1f5ad09ce0bf80a3bf6f2fe45079d0ba8fc02f8d0fcfd07c3fb19f74d06fb08f7fc4ffd68f89ef823f4e300cef41c0a67f5b2f57606a2fc8e0a1cf9b90247fc43ffc10a41f7ff080a0bcf07b2fc52f624fa45f93df80008ec00e10428067b0133ff29055bfcbdfebdf453fe9b0b69f59bfa8604000b20f9c20772,1,0,0020002000200020002000200020002000200020002000200020002000200020002000200020002000200020002000200020002000200020002000200020002000200020002000200020002000200020002000200020002000200020002000200020002000200020002000200020002000200020002000200020002000200020
36,36,0,0,1,f4510a37f430f8d0038000040258fd0309ac0a92f53d051f08b80405f610f5effa4f06fa0a0ef8e7fa1cf887ffa905b5fe47093c094702eb09bf0b69f4880584fea1f6df0a6701960a5503fb0011f74c08d1092af4b707f2fb45ff8f0205fd61f64503e7fa3bfadef96f089dfce10af908b5f899f66c0bcafa4400bcfe48077c,1,0,0020002000200020002000200020002000200020002000200020002000200020002000200020002000200020002000200020002000200020002000200020002000200020002000200020002000200020002000200020002000200020002000200020002000200020002000200020002000200020002000200020002000200020
