Sample in Buffer,Sample in Window,TRIGGER,clk_IBUF_BUFG,valid_in,in_x_flat[1023:0],en,valid_out,prob_flat[1023:0]
Radix - UNSIGNED,UNSIGNED,UNSIGNED,HEX,HEX,HEX,HEX,HEX,HEX
0,0,0,0,0,013e00adf93704f9f67b0a42fcc7fb37fe44fc0bff9f06820761016d029206ffffe9f5ef089307b0008c009dfd3cfd430962fe220142011ff4a1f97b036d011dfaf6f6b9067dffa007ed019300dafdfa047401cc003b0934f992fbcdf656fda103e3fce40004f4e808390238f7b6ff6702700425fe4f05eef8c9f740f798fddd,0,0,0000000000000000000000000000000000000000000000000000000000000000000000000000000000000000000000000000000000000000000000000000000000000000000000000000000000000000000000000000000000000000000000000000000000000000000000000000000000000000000000000000000000000000
1,1,0,0,0,013e00adf93704f9f67b0a42fcc7fb37fe44fc0bff9f06820761016d029206ffffe9f5ef089307b0008c009dfd3cfd430962fe220142011ff4a1f97b036d011dfaf6f6b9067dffa007ed019300dafdfa047401cc003b0934f992fbcdf656fda103e3fce40004f4e808390238f7b6ff6702700425fe4f05eef8c9f740f798fddd,0,0,0000000000000000000000000000000000000000000000000000000000000000000000000000000000000000000000000000000000000000000000000000000000000000000000000000000000000000000000000000000000000000000000000000000000000000000000000000000000000000000000000000000000000000
2,2,0,0,0,013e00adf93704f9f67b0a42fcc7fb37fe44fc0bff9f06820761016d029206ffffe9f5ef089307b0008c009dfd3cfd430962fe220142011ff4a1f97b036d011dfaf6f6b9067dffa007ed019300dafdfa047401cc003b0934f992fbcdf656fda103e3fce40004f4e808390238f7b6ff6702700425fe4f05eef8c9f740f798fddd,0,0,0000000000000000000000000000000000000000000000000000000000000000000000000000000000000000000000000000000000000000000000000000000000000000000000000000000000000000000000000000000000000000000000000000000000000000000000000000000000000000000000000000000000000000
3,3,0,0,0,013e00adf93704f9f67b0a42fcc7fb37fe44fc0bff9f06820761016d029206ffffe9f5ef089307b0008c009dfd3cfd430962fe220142011ff4a1f97b036d011dfaf6f6b9067dffa007ed019300dafdfa047401cc003b0934f992fbcdf656fda103e3fce40004f4e808390238f7b6ff6702700425fe4f05eef8c9f740f798fddd,0,0,0000000000000000000000000000000000000000000000000000000000000000000000000000000000000000000000000000000000000000000000000000000000000000000000000000000000000000000000000000000000000000000000000000000000000000000000000000000000000000000000000000000000000000
4,4,0,0,0,013e00adf93704f9f67b0a42fcc7fb37fe44fc0bff9f06820761016d029206ffffe9f5ef089307b0008c009dfd3cfd430962fe220142011ff4a1f97b036d011dfaf6f6b9067dffa007ed019300dafdfa047401cc003b0934f992fbcdf656fda103e3fce40004f4e808390238f7b6ff6702700425fe4f05eef8c9f740f798fddd,0,0,0000000000000000000000000000000000000000000000000000000000000000000000000000000000000000000000000000000000000000000000000000000000000000000000000000000000000000000000000000000000000000000000000000000000000000000000000000000000000000000000000000000000000000
5,5,0,0,0,013e00adf93704f9f67b0a42fcc7fb37fe44fc0bff9f06820761016d029206ffffe9f5ef089307b0008c009dfd3cfd430962fe220142011ff4a1f97b036d011dfaf6f6b9067dffa007ed019300dafdfa047401cc003b0934f992fbcdf656fda103e3fce40004f4e808390238f7b6ff6702700425fe4f05eef8c9f740f798fddd,0,0,0000000000000000000000000000000000000000000000000000000000000000000000000000000000000000000000000000000000000000000000000000000000000000000000000000000000000000000000000000000000000000000000000000000000000000000000000000000000000000000000000000000000000000
6,6,0,0,0,013e00adf93704f9f67b0a42fcc7fb37fe44fc0bff9f06820761016d029206ffffe9f5ef089307b0008c009dfd3cfd430962fe220142011ff4a1f97b036d011dfaf6f6b9067dffa007ed019300dafdfa047401cc003b0934f992fbcdf656fda103e3fce40004f4e808390238f7b6ff6702700425fe4f05eef8c9f740f798fddd,0,0,0000000000000000000000000000000000000000000000000000000000000000000000000000000000000000000000000000000000000000000000000000000000000000000000000000000000000000000000000000000000000000000000000000000000000000000000000000000000000000000000000000000000000000
7,7,0,0,0,013e00adf93704f9f67b0a42fcc7fb37fe44fc0bff9f06820761016d029206ffffe9f5ef089307b0008c009dfd3cfd430962fe220142011ff4a1f97b036d011dfaf6f6b9067dffa007ed019300dafdfa047401cc003b0934f992fbcdf656fda103e3fce40004f4e808390238f7b6ff6702700425fe4f05eef8c9f740f798fddd,0,0,0000000000000000000000000000000000000000000000000000000000000000000000000000000000000000000000000000000000000000000000000000000000000000000000000000000000000000000000000000000000000000000000000000000000000000000000000000000000000000000000000000000000000000
8,8,0,0,0,013e00adf93704f9f67b0a42fcc7fb37fe44fc0bff9f06820761016d029206ffffe9f5ef089307b0008c009dfd3cfd430962fe220142011ff4a1f97b036d011dfaf6f6b9067dffa007ed019300dafdfa047401cc003b0934f992fbcdf656fda103e3fce40004f4e808390238f7b6ff6702700425fe4f05eef8c9f740f798fddd,0,0,0000000000000000000000000000000000000000000000000000000000000000000000000000000000000000000000000000000000000000000000000000000000000000000000000000000000000000000000000000000000000000000000000000000000000000000000000000000000000000000000000000000000000000
9,9,0,0,0,013e00adf93704f9f67b0a42fcc7fb37fe44fc0bff9f06820761016d029206ffffe9f5ef089307b0008c009dfd3cfd430962fe220142011ff4a1f97b036d011dfaf6f6b9067dffa007ed019300dafdfa047401cc003b0934f992fbcdf656fda103e3fce40004f4e808390238f7b6ff6702700425fe4f05eef8c9f740f798fddd,0,0,0000000000000000000000000000000000000000000000000000000000000000000000000000000000000000000000000000000000000000000000000000000000000000000000000000000000000000000000000000000000000000000000000000000000000000000000000000000000000000000000000000000000000000
10,10,0,0,0,013e00adf93704f9f67b0a42fcc7fb37fe44fc0bff9f06820761016d029206ffffe9f5ef089307b0008c009dfd3cfd430962fe220142011ff4a1f97b036d011dfaf6f6b9067dffa007ed019300dafdfa047401cc003b0934f992fbcdf656fda103e3fce40004f4e808390238f7b6ff6702700425fe4f05eef8c9f740f798fddd,0,0,0000000000000000000000000000000000000000000000000000000000000000000000000000000000000000000000000000000000000000000000000000000000000000000000000000000000000000000000000000000000000000000000000000000000000000000000000000000000000000000000000000000000000000
11,11,0,0,0,013e00adf93704f9f67b0a42fcc7fb37fe44fc0bff9f06820761016d029206ffffe9f5ef089307b0008c009dfd3cfd430962fe220142011ff4a1f97b036d011dfaf6f6b9067dffa007ed019300dafdfa047401cc003b0934f992fbcdf656fda103e3fce40004f4e808390238f7b6ff6702700425fe4f05eef8c9f740f798fddd,0,0,0000000000000000000000000000000000000000000000000000000000000000000000000000000000000000000000000000000000000000000000000000000000000000000000000000000000000000000000000000000000000000000000000000000000000000000000000000000000000000000000000000000000000000
12,12,0,0,0,013e00adf93704f9f67b0a42fcc7fb37fe44fc0bff9f06820761016d029206ffffe9f5ef089307b0008c009dfd3cfd430962fe220142011ff4a1f97b036d011dfaf6f6b9067dffa007ed019300dafdfa047401cc003b0934f992fbcdf656fda103e3fce40004f4e808390238f7b6ff6702700425fe4f05eef8c9f740f798fddd,0,0,0000000000000000000000000000000000000000000000000000000000000000000000000000000000000000000000000000000000000000000000000000000000000000000000000000000000000000000000000000000000000000000000000000000000000000000000000000000000000000000000000000000000000000
13,13,0,0,0,013e00adf93704f9f67b0a42fcc7fb37fe44fc0bff9f06820761016d029206ffffe9f5ef089307b0008c009dfd3cfd430962fe220142011ff4a1f97b036d011dfaf6f6b9067dffa007ed019300dafdfa047401cc003b0934f992fbcdf656fda103e3fce40004f4e808390238f7b6ff6702700425fe4f05eef8c9f740f798fddd,0,0,0000000000000000000000000000000000000000000000000000000000000000000000000000000000000000000000000000000000000000000000000000000000000000000000000000000000000000000000000000000000000000000000000000000000000000000000000000000000000000000000000000000000000000
14,14,0,0,0,013e00adf93704f9f67b0a42fcc7fb37fe44fc0bff9f06820761016d029206ffffe9f5ef089307b0008c009dfd3cfd430962fe220142011ff4a1f97b036d011dfaf6f6b9067dffa007ed019300dafdfa047401cc003b0934f992fbcdf656fda103e3fce40004f4e808390238f7b6ff6702700425fe4f05eef8c9f740f798fddd,0,0,0000000000000000000000000000000000000000000000000000000000000000000000000000000000000000000000000000000000000000000000000000000000000000000000000000000000000000000000000000000000000000000000000000000000000000000000000000000000000000000000000000000000000000
15,15,0,0,0,013e00adf93704f9f67b0a42fcc7fb37fe44fc0bff9f06820761016d029206ffffe9f5ef089307b0008c009dfd3cfd430962fe220142011ff4a1f97b036d011dfaf6f6b9067dffa007ed019300dafdfa047401cc003b0934f992fbcdf656fda103e3fce40004f4e808390238f7b6ff6702700425fe4f05eef8c9f740f798fddd,0,0,0000000000000000000000000000000000000000000000000000000000000000000000000000000000000000000000000000000000000000000000000000000000000000000000000000000000000000000000000000000000000000000000000000000000000000000000000000000000000000000000000000000000000000
16,16,0,0,0,013e00adf93704f9f67b0a42fcc7fb37fe44fc0bff9f06820761016d029206ffffe9f5ef089307b0008c009dfd3cfd430962fe220142011ff4a1f97b036d011dfaf6f6b9067dffa007ed019300dafdfa047401cc003b0934f992fbcdf656fda103e3fce40004f4e808390238f7b6ff6702700425fe4f05eef8c9f740f798fddd,0,0,0000000000000000000000000000000000000000000000000000000000000000000000000000000000000000000000000000000000000000000000000000000000000000000000000000000000000000000000000000000000000000000000000000000000000000000000000000000000000000000000000000000000000000
17,17,0,0,0,013e00adf93704f9f67b0a42fcc7fb37fe44fc0bff9f06820761016d029206ffffe9f5ef089307b0008c009dfd3cfd430962fe220142011ff4a1f97b036d011dfaf6f6b9067dffa007ed019300dafdfa047401cc003b0934f992fbcdf656fda103e3fce40004f4e808390238f7b6ff6702700425fe4f05eef8c9f740f798fddd,0,0,0000000000000000000000000000000000000000000000000000000000000000000000000000000000000000000000000000000000000000000000000000000000000000000000000000000000000000000000000000000000000000000000000000000000000000000000000000000000000000000000000000000000000000
18,18,0,0,0,013e00adf93704f9f67b0a42fcc7fb37fe44fc0bff9f06820761016d029206ffffe9f5ef089307b0008c009dfd3cfd430962fe220142011ff4a1f97b036d011dfaf6f6b9067dffa007ed019300dafdfa047401cc003b0934f992fbcdf656fda103e3fce40004f4e808390238f7b6ff6702700425fe4f05eef8c9f740f798fddd,0,0,0000000000000000000000000000000000000000000000000000000000000000000000000000000000000000000000000000000000000000000000000000000000000000000000000000000000000000000000000000000000000000000000000000000000000000000000000000000000000000000000000000000000000000
19,19,0,0,0,013e00adf93704f9f67b0a42fcc7fb37fe44fc0bff9f06820761016d029206ffffe9f5ef089307b0008c009dfd3cfd430962fe220142011ff4a1f97b036d011dfaf6f6b9067dffa007ed019300dafdfa047401cc003b0934f992fbcdf656fda103e3fce40004f4e808390238f7b6ff6702700425fe4f05eef8c9f740f798fddd,0,0,0000000000000000000000000000000000000000000000000000000000000000000000000000000000000000000000000000000000000000000000000000000000000000000000000000000000000000000000000000000000000000000000000000000000000000000000000000000000000000000000000000000000000000
20,20,1,0,0,013e00adf93704f9f67b0a42fcc7fb37fe44fc0bff9f06820761016d029206ffffe9f5ef089307b0008c009dfd3cfd430962fe220142011ff4a1f97b036d011dfaf6f6b9067dffa007ed019300dafdfa047401cc003b0934f992fbcdf656fda103e3fce40004f4e808390238f7b6ff6702700425fe4f05eef8c9f740f798fddd,0,0,0000000000000000000000000000000000000000000000000000000000000000000000000000000000000000000000000000000000000000000000000000000000000000000000000000000000000000000000000000000000000000000000000000000000000000000000000000000000000000000000000000000000000000
21,21,0,0,0,013e00adf93704f9f67b0a42fcc7fb37fe44fc0bff9f06820761016d029206ffffe9f5ef089307b0008c009dfd3cfd430962fe220142011ff4a1f97b036d011dfaf6f6b9067dffa007ed019300dafdfa047401cc003b0934f992fbcdf656fda103e3fce40004f4e808390238f7b6ff6702700425fe4f05eef8c9f740f798fddd,0,0,0000000000000000000000000000000000000000000000000000000000000000000000000000000000000000000000000000000000000000000000000000000000000000000000000000000000000000000000000000000000000000000000000000000000000000000000000000000000000000000000000000000000000000
22,22,0,0,0,013e00adf93704f9f67b0a42fcc7fb37fe44fc0bff9f06820761016d029206ffffe9f5ef089307b0008c009dfd3cfd430962fe220142011ff4a1f97b036d011dfaf6f6b9067dffa007ed019300dafdfa047401cc003b0934f992fbcdf656fda103e3fce40004f4e808390238f7b6ff6702700425fe4f05eef8c9f740f798fddd,1,0,0000000000000000000000000000000000000000000000000000000000000000000000000000000000000000000000000000000000000000000000000000000000000000000000000000000000000000000000000000000000000000000000000000000000000000000000000000000000000000000000000000000000000000
23,23,0,0,1,013e00adf93704f9f67b0a42fcc7fb37fe44fc0bff9f06820761016d029206ffffe9f5ef089307b0008c009dfd3cfd430962fe220142011ff4a1f97b036d011dfaf6f6b9067dffa007ed019300dafdfa047401cc003b0934f992fbcdf656fda103e3fce40004f4e808390238f7b6ff6702700425fe4f05eef8c9f740f798fddd,1,0,8000800080008000800080008000800080008000800080008000800080008000800080008000800080008000800080008000800080008000800080008000800080008000800080008000800080008000800080008000800080008000800080008000800080008000800080008000800080008000800080008000800080008000
24,24,0,0,1,088a063d075c00b0fb320151f5a002410401ffb2fa3ff63c049ffdec0aa2fdcffb910ab4fd4408ed0b86fa64ff17fb0dfd51f9da0b2a084304c60906fd7ffa97fcb1f775f790084ef70f03090a130174ff4af5510041f96c0845f968fa8efb7305d70b3d0a370a97f4ae0be7fc0f0045f66306bff465fe3e05a8017f0488f52c,1,0,000a00090001001b000000670003000200050002000700280032000b000e002e0007000000400035000800090003000300530004000a000a000000010012000a00020000002800070038000b000900040018000c0007004e00010002000000040015000300070000003c000d00000006000e0016000500210001000000000004
25,25,0,0,1,0697f4ca07eb02e3016b001b0231f6090027fcbd072efc890afb03760572061bff110048ff58f99ef8be05540bbaf445f459fbceff24084c048c0143fbc1fbab0911f8ce090af532f4bf0718fd5b0133f67307d403440ad4052dff12f6ee01e0fc4107d7f8b7f58f088cfa7104ddfab2fc1401870bcc0855001f0784fb9ef601,1,0,000a00090001001b000000670003000200050002000700280032000b000e002e0007000000400035000800090003000300530004000a000a000000010012000a00020000002800070038000b000900040018000c0007004e00010002000000040015000300070000003c000d00000006000e0016000500210001000000000004
26,26,0,0,1,05f2f9da008204f40266048ff7edfbed0470085ef792fa6c01f1fc460019071b026b04fa0b12fc1fff4bf7780011fe6ff8abfdf20823fa2904fd084cf7a8f8780167f8b9ffde05e3f6ed09f4fd82053706c004d9fbbb0bd9f4d7fe1708b0fbac0ad3fa660ba1f75b0939fbac0788f69805b70552fc9ff8c6f94afdb4fbd2f833,1,0,000a00090001001b000000670003000200050002000700280032000b000e002e0007000000400035000800090003000300530004000a000a000000010012000a00020000002800070038000b000900040018000c0007004e00010002000000040015000300070000003c000d00000006000e0016000500210001000000000004
27,27,0,0,1,0b8104930a1d09d9fcc70276ff58035406470bbcf42afe67017d05a5f617086807e408d0f913f6f9f5b8f446076c01480200fb07ff7e062dffe5fd6e07a6080b04bcfc42fa97f928fc5df70f036bf543f8faff5209fd069c016df5e2f7bdf56f06f7f78afd18fff0f99d0b3b0ae5f618f444fe10f4c3ffe8fee5fcec0128f75c,1,0,000a00090001001b000000670003000200050002000700280032000b000e002e0007000000400035000800090003000300530004000a000a000000010012000a00020000002800070038000b000900040018000c0007004e00010002000000040015000300070000003c000d00000006000e0016000500210001000000000004
28,28,0,0,1,f417013002e701c1f55a013bff14fd7b0a2209a00be6fcbcf71c076afc4b0a3902f5fef603b7ff92f580028b0541f8e5078f0162ffebfaa2f7c6019909a4f7a8f6a4f7e9098ffd08fedf0434008607e8ff33fa00094ef753fcd7015dfdd0feaff5620ad203300b71fe7b06a204d401ff007508fc03c4083ef4f10a6f045401c1,1,0,000a00090001001b000000670003000200050002000700280032000b000e002e0007000000400035000800090003000300530004000a000a000000010012000a00020000002800070038000b000900040018000c0007004e00010002000000040015000300070000003c000d00000006000e0016000500210001000000000004
29,29,0,0,1,fdfefb0908aafee00aef07edf7d9f9c3f56e01a5f9fd0539f6def664fca9f9f40575f9f80b34f82b02ed0452f5b9fa26012efba201dffe21008af855f50f09010bc2005e038df63ffa4a0abdf985fd9efe86f9b205de063bfd5af895fdfaf50df98efbeffd6806ac01a8f5060706fb030394fb3cf48ef4a70925fd79f84e0278,1,0,0400000904000400040004000400040000050002000700280032000b000e002e0007000000400035000800090003000300530004000a000a000000010012000a040000670120040004000400040004000100040004000400043004000080000e00000025001400000400000c00000200000e0016000500210001040004000004
30,30,0,0,1,09b406a3fced0936f8a90330f75b06e0064902cafe430bf8f8a9fada051cfa46f6b7fde30495f6c009e60474f5e9f8a1fe8403c705bbf827f80803f6fc6904c7024efaa5030afe7affc20942fea2f5e8fe0e02a5fec60b05fb8c040af98ffa55fa300a1f0b31024a0486033c029afbedf857fdeaf88204d3ff61fa150b5dfab1,1,0,0400040004000400040004000400040004000400040004000400040004000400040004000400040004000400040004000400040004000400040004000400040004000400040004000400040004000400040004000400040004000400040004000400040004000400040004000400040004000400040004000400040004000400
31,31,0,0,1,08370b23fe5a0726fde3fc4503830a53fb2bf653f70ffddff8ed087bfe7df8c90315f65a01a70737063d00a6077e03d1fda0f95005c4f7b4ffa3fad000f707610bd1054c0605f7ca085ffdf4065cfa9906f30551fe56f450f53bf55603d9f9ebf4c00adafbec030bfbc1f64bfa4e049af6d4faa8ff0f03610909044bf75a0935,1,0,0020002000200020002000200020002000200020002000200020002000200020002000200020002000200020002000200020002000200020002000200020002000200020002000200020002000200020002000200020002000200020002000200020002000200020002000200020002000200020002000200020002000200020
32,32,0,0,1,03ad03ae009103b0f918fe4ef5f1f4f4f6e8f58fff3ffcb0f95405ecfded049c06b2f8e5fd90043f06360691f824f96bfce80a6f09e6fd06ff41f459fbba02d10b79f58500bffb6a03640141fe5d0018fe7d02a006910a94fdbe0993046cfe9bf669020b02dd06990643fabd06ea098c046bf61506a7ff9c06cb06890194f8c3,1,0,0000000000000000000000000000000000000000000000000000000000000000000000000000000000000000000000000000000000000000000000000000000000000000000000000000000000000000000000000000000000000000000000000000000000000000000000000000000000000000000000000000000000000000
33,33,0,0,1,f6290a5d095703b0ff7effe6f93af51cfe20faacfd3efa9c00a5f52905b9fb32f53af4eb08040900f94ff814f578ff1ff517fa9e08faf42cf9550000f6b1004b0820f83e0957fd130bb506e2fa8d0bd00756074ef65f0bebfe6afaee06feff5908510633fd81f590f6a3075a005a086bfd01fba4ffd80ad7f516043af99cfc4a,1,0,0067006700670067006700670067006700670067006700670067006700670067006700670067006700670067006700670067006700670067006700670067006700670067006700670067006700670067006700670067006700670067006700670067006700670067006700670067006700670067006700670067006700670067
34,34,0,0,1,037cf4170852045d034e04000a6cf549f9adfa11f54afe9bff1ffe200165ff92f4e501d20924f797ff3002bc02d1ff40064f03c0f74afd740aa6083afd1700900660fd53040401d7fb33fb15fd5dfd39f9f000fd096cfa3efa5ff5e3060509da06700525f9690bcf059cf484fd31f65705bb0623fb59f7f608e1091d051cf69d,1,0,0067006700670067006700670067006700670067006700670067006700670067006700670067006700670067006700670067006700670067006700670067006700670067006700670067006700670067006700670067006700670067006700670067006700670067006700670067006700670067006700670067006700670067
35,35,0,0,1,f450f4bbfb2cfd1000fd0235fc56fbe506620a8601e7fd0c0352087d089ef6acf6dc0ac50b16f55102e302ccf85a0a9a034ffc210428fff0f8bffd62fadef4f50a300118f9a4093e086cfbc10539f808f7e10447f8c7f9df0770f5500bf808610743023f0280049e05e10b76fbf4fbaf079bf9c602bb01b6fc13fc72f53f0212,1,0,0067006700670067006700670067006700670067006700670067006700670067006700670067006700670067006700670067006700670067006700670067006700670067006700670067006700670067006700670067006700670067006700670067006700670067006700670067006700670067006700670067006700670067
36,36,0,0,1,0b5af44dfb7106680a62f5b20a8f045d05dd0a6201e3fed40367f48d073dfd22ff9af4e9fafa07ab0497f42ef96ef63e023cf54906fefd4903f800fff61cf6ef0b2e0010016300140387ff19f8ad04e9fee40adb0080f892fa86fe9e01aafe56f56afcd80b4005350a85fa9dfec2fc040abcfd77f9140a77076efdf002f50524,1,0,0067006700670067006700670067006700670067006700670067006700670067006700670067006700670067006700670067006700670067006700670067006700670067006700670067006700670067006700670067006700670067006700670067006700670067006700670067006700670067006700670067006700670067
